
T104C 000:483 SEGGER J-Link V4.90 Log File (0000ms, 0269ms total)
T104C 000:483 DLL Compiled: Jul 28 2014 10:35:20 (0000ms, 0269ms total)
T104C 000:483 Logging started @ 2016-11-03 13:31 (0000ms, 0269ms total)
T104C 000:483 JLINK_SetWarnOutHandler(...) (0000ms, 0269ms total)
T104C 000:483 JLINK_OpenEx(...)
Firmware: J-Link ARM V8 compiled Jan 31 2018 18:34:52
Hardware: V8.00
S/N: 20080643
Feature(s): RDI,FlashDL,FlashBP,JFlash,GDBFull  returns O.K. (0257ms, 0526ms total)
T104C 000:740 JLINK_SetErrorOutHandler(...) (0000ms, 0526ms total)
T104C 000:740 JLINK_ExecCommand("ProjectFile = "D:\WorkSpace\RF24L01\Versions\·¢²¼\Demo_RF24L01_Stm32F103\Project_Rf24l01\JLinkSettings.ini"", ...)  returns 0x00 (0000ms, 0526ms total)
T104C 000:740 JLINK_ExecCommand("Device = STM32F103ZE", ...)Device "STM32F103ZE" selected (512 KB flash, 64 KB RAM).  returns 0x00 (0000ms, 0526ms total)
T104C 000:740 JLINK_ExecCommand("DisableConnectionTimeout", ...)  returns 0x01 (0000ms, 0526ms total)
T104C 000:740 JLINK_GetHardwareVersion()  returns 0x13880 (0000ms, 0526ms total)
T104C 000:740 JLINK_GetDLLVersion()  returns 49000 (0000ms, 0526ms total)
T104C 000:740 JLINK_GetFirmwareString(...) (0000ms, 0526ms total)
T104C 000:740 JLINK_GetDLLVersion()  returns 49000 (0000ms, 0526ms total)
T104C 000:740 JLINK_GetCompileDateTime() (0000ms, 0526ms total)
T104C 000:740 JLINK_GetFirmwareString(...) (0000ms, 0526ms total)
T104C 000:740 JLINK_GetHardwareVersion()  returns 0x13880 (0000ms, 0526ms total)
T104C 000:740 JLINK_TIF_Select(JLINKARM_TIF_SWD)  returns 0x00 (0002ms, 0528ms total)
T104C 000:742 JLINK_SetSpeed(10000) (0000ms, 0528ms total)
T104C 000:742 JLINK_GetId() >0x108 TIF>Found SWD-DP with ID 0x1BA01477 >0x0D TIF> >0x28 TIF> >0x0D TIF> >0x28 TIF> >0x0D TIF> >0x21 TIF> >0x0D TIF> >0x28 TIF> >0x0D TIF> >0x28 TIF> >0x0D TIF> >0x28 TIF> >0x0D TIF> >0x21 TIF> >0x0D TIF> >0x21 TIF> >0x0D TIF> >0x28 TIF> >0x0D TIF> >0x21 TIF> >0x0D TIF> >0x21 TIF> >0x108 TIF>Found SWD-DP with ID 0x1BA01477 >0x0D TIF> >0x21 TIF> >0x0D TIF> >0x28 TIF> >0x0D TIF> >0x28 TIF> >0x0D TIF> >0x21 TIF> >0x0D TIF> >0x28 TIF> >0x0D TIF> >0x21 TIF> >0x0D TIF> >0x21 TIF>
 >0x0D TIF> >0x21 TIF> >0x0D TIF> >0x28 TIF> >0x0D TIF> >0x21 TIF> >0x0D TIF> >0x28 TIF> >0x0D TIF> >0x28 TIF> >0x0D TIF> >0x21 TIF> >0x0D TIF> >0x28 TIF> >0x0D TIF> >0x28 TIF> >0x0D TIF> >0x28 TIF> >0x0D TIF> >0x21 TIF> >0x0D TIF> >0x21 TIF> >0x0D TIF> >0x28 TIF> >0x0D TIF> >0x21 TIF> >0x0D TIF> >0x21 TIF>Found Cortex-M3 r1p1, Little endian. >0x0D TIF> >0x28 TIF> -- CPU_WriteMem(4 bytes @ 0xE0002000) -- CPU_ReadMem(4 bytes @ 0xE000EDF0) -- CPU_ReadMem(4 bytes @ 0xE0002000)
FPUnit: 6 code (BP) slots and 2 literal slots -- CPU_ReadMem(4 bytes @ 0xE000EDFC) -- CPU_ReadMem(4 bytes @ 0xE0001000) -- CPU_WriteMem(4 bytes @ 0xE0001000) -- CPU_ReadMem(4 bytes @ 0xE00FF010)TPIU fitted. -- CPU_ReadMem(4 bytes @ 0xE00FF014)ETM fitted. -- CPU_ReadMem(4 bytes @ 0xE00FF018) >0x0D TIF> >0x21 TIF>  returns 0x1BA01477 (0035ms, 0563ms total)
T104C 000:777 JLINK_GetDLLVersion()  returns 49000 (0000ms, 0563ms total)
T104C 000:777 JLINK_CORE_GetFound()  returns 0x30000FF (0000ms, 0563ms total)
T104C 000:777 JLINK_GetDebugInfo(0x100) -- Value=0xE00FF003  returns 0x00 (0000ms, 0563ms total)
T104C 000:777 JLINK_GetDebugInfo(0x101)  returns 0xFFFFFFFF (0000ms, 0563ms total)
T104C 000:777 JLINK_ReadMem (0xE0041FF0, 0x0010 Bytes, ...) -- CPU is running -- CPU_ReadMem(16 bytes @ 0xE0041FF0) - Data: 0D 00 00 00 90 00 00 00 05 00 00 00 B1 00 00 00  returns 0x00 (0000ms, 0563ms total)
T104C 000:777 JLINK_GetDebugInfo(0x102)  returns 0xFFFFFFFF (0000ms, 0563ms total)
T104C 000:777 JLINK_GetDebugInfo(0x103)  returns 0xFFFFFFFF (0000ms, 0563ms total)
T104C 000:777 JLINK_ReadMem (0xE0040FF0, 0x0010 Bytes, ...) -- CPU is running -- CPU_ReadMem(16 bytes @ 0xE0040FF0) - Data: 0D 00 00 00 90 00 00 00 05 00 00 00 B1 00 00 00  returns 0x00 (0001ms, 0564ms total)
T104C 000:778 JLINK_GetDebugInfo(0x104)  returns 0xFFFFFFFF (0000ms, 0564ms total)
T104C 000:778 JLINK_GetDebugInfo(0x105)  returns 0xFFFFFFFF (0000ms, 0564ms total)
T104C 000:778 JLINK_GetDebugInfo(0x106)  returns 0xFFFFFFFF (0000ms, 0564ms total)
T104C 000:778 JLINK_GetDebugInfo(0x107)  returns 0xFFFFFFFF (0000ms, 0564ms total)
T104C 000:778 JLINK_GetDebugInfo(0x10C)  returns 0xFFFFFFFF (0000ms, 0564ms total)
T104C 000:778 JLINK_ReadMemU32(0xE000ED00, 0x0001 Items, ...) -- CPU is running -- CPU_ReadMem(4 bytes @ 0xE000ED00) - Data: 31 C2 1F 41  returns 0x01 (0001ms, 0565ms total)
T104C 000:779 JLINK_SetResetType(JLINKARM_RESET_TYPE_NORMAL)  returns JLINKARM_RESET_TYPE_NORMAL (0000ms, 0565ms total)
T104C 000:779 JLINK_Reset() -- CPU_WriteMem(4 bytes @ 0xE0002000) -- CPU_ReadMem(4 bytes @ 0xE000EDFC) -- CPU_WriteMem(4 bytes @ 0xE000EDFC) -- CPU_ReadMem(4 bytes @ 0xE0001000) (0012ms, 0577ms total)
T104C 000:791 JLINK_ReadReg(R15 (PC))  returns 0x080001CE (0000ms, 0577ms total)
T104C 000:791 JLINK_ReadReg(XPSR)  returns 0x01000000 (0000ms, 0577ms total)
T104C 000:791 JLINK_Halt()  returns 0x00 (0000ms, 0577ms total)
T104C 000:791 JLINK_IsHalted()  returns TRUE (0000ms, 0577ms total)
T104C 000:791 JLINK_ReadMemU32(0xE000EDF0, 0x0001 Items, ...) -- CPU_ReadMem(4 bytes @ 0xE000EDF0) - Data: 03 00 03 00  returns 0x01 (0001ms, 0578ms total)
T104C 000:792 JLINK_WriteU32(0xE000EDF0, 0xA05F0003) -- CPU_WriteMem(4 bytes @ 0xE000EDF0)  returns 0x00 (0000ms, 0578ms total)
T104C 000:792 JLINK_WriteU32(0xE000EDFC, 0x01000000) -- CPU_WriteMem(4 bytes @ 0xE000EDFC)  returns 0x00 (0001ms, 0579ms total)
T104C 000:793 JLINK_GetHWStatus(...)  returns 0x00 (0000ms, 0579ms total)
T104C 000:793 JLINK_GetNumBPUnits(Type = 0xFFFFFF00)  returns 0x06 (0000ms, 0579ms total)
T104C 000:793 JLINK_GetNumBPUnits(Type = 0xF0)  returns 0x2000 (0000ms, 0579ms total)
T104C 000:793 JLINK_GetNumWPUnits()  returns 0x04 (0000ms, 0579ms total)
T104C 000:793 JLINK_GetSpeed()  returns 0xFA0 (0000ms, 0579ms total)
T104C 000:793 JLINK_ReadMemU32(0xE000E004, 0x0001 Items, ...) -- CPU_ReadMem(4 bytes @ 0xE000E004) - Data: 01 00 00 00  returns 0x01 (0001ms, 0580ms total)
T104C 000:794 JLINK_ReadMemU32(0xE000E004, 0x0001 Items, ...) -- CPU_ReadMem(4 bytes @ 0xE000E004) - Data: 01 00 00 00  returns 0x01 (0000ms, 0580ms total)
T104C 000:794 JLINK_WriteMem(0xE0001000, 0x001C Bytes, ...) - Data: 01 00 00 00 00 00 00 00 00 00 00 00 00 00 00 00 ... -- CPU_WriteMem(28 bytes @ 0xE0001000)  returns 0x1C (0001ms, 0581ms total)
T104C 000:795 JLINK_ReadMem (0xE0001000, 0x001C Bytes, ...) -- CPU_ReadMem(28 bytes @ 0xE0001000) - Data: 01 00 00 40 00 00 00 00 00 00 00 00 00 00 00 00 ...  returns 0x00 (0000ms, 0581ms total)
T104C 000:795 JLINK_ReadReg(R15 (PC))  returns 0x080001CE (0000ms, 0581ms total)
T104C 000:795 JLINK_ReadReg(XPSR)  returns 0x01000000 (0000ms, 0581ms total)
T104C 000:859 JLINK_SetResetType(JLINKARM_RESET_TYPE_NORMAL)  returns JLINKARM_RESET_TYPE_NORMAL (0000ms, 0581ms total)
T104C 000:859 JLINK_Reset() -- CPU_WriteMem(4 bytes @ 0xE0002000) -- CPU_ReadMem(4 bytes @ 0xE000EDFC) -- CPU_WriteMem(4 bytes @ 0xE000EDFC) -- CPU_ReadMem(4 bytes @ 0xE0001000) (0013ms, 0594ms total)
T104C 000:872 JLINK_ReadReg(R15 (PC))  returns 0x080001CE (0000ms, 0594ms total)
T104C 000:872 JLINK_ReadReg(XPSR)  returns 0x01000000 (0000ms, 0594ms total)
T104C 000:872 JLINK_ReadMem (0x080001CE, 0x0002 Bytes, ...) -- CPU_ReadMem(64 bytes @ 0x080001C0) -- Updating C cache (64 bytes @ 0x080001C0) -- Read from C cache (2 bytes @ 0x080001CE) - Data: 0B 48  returns 0x00 (0001ms, 0595ms total)
T104C 000:873 JLINK_ReadMem (0x080001D0, 0x003C Bytes, ...) -- CPU_ReadMem(64 bytes @ 0x08000200) -- Updating C cache (64 bytes @ 0x08000200) -- Read from C cache (60 bytes @ 0x080001D0) - Data: 80 47 0B 49 81 F3 08 88 0A 48 00 47 FE E7 FE E7 ...  returns 0x00 (0001ms, 0596ms total)
T104C 000:946 JLINK_ReadMem (0x40010800, 0x000C Bytes, ...) -- CPU_ReadMem(12 bytes @ 0x40010800) - Data: 44 44 44 44 44 44 84 88 00 00 00 00  returns 0x00 (0001ms, 0597ms total)
T104C 000:947 JLINK_ReadMem (0x4001080C, 0x0004 Bytes, ...) -- CPU_ReadMem(4 bytes @ 0x4001080C) - Data: 00 A0 00 00  returns 0x00 (0001ms, 0598ms total)
T104C 000:948 JLINK_ReadMem (0x40010818, 0x0004 Bytes, ...) -- CPU_ReadMem(4 bytes @ 0x40010818) - Data: 00 00 00 00  returns 0x00 (0000ms, 0598ms total)
T104C 000:965 JLINK_ReadMem (0x40010C00, 0x000C Bytes, ...) -- CPU_ReadMem(12 bytes @ 0x40010C00) - Data: 44 44 48 44 44 44 44 44 00 00 00 00  returns 0x00 (0001ms, 0599ms total)
T104C 000:966 JLINK_ReadMem (0x40010C0C, 0x0004 Bytes, ...) -- CPU_ReadMem(4 bytes @ 0x40010C0C) - Data: 10 00 00 00  returns 0x00 (0000ms, 0599ms total)
T104C 000:966 JLINK_ReadMem (0x40010C18, 0x0004 Bytes, ...) -- CPU_ReadMem(4 bytes @ 0x40010C18) - Data: 00 00 00 00  returns 0x00 (0001ms, 0600ms total)
T104C 000:982 JLINK_ReadMem (0x40011800, 0x000C Bytes, ...) -- CPU_ReadMem(12 bytes @ 0x40011800) - Data: 44 44 44 44 44 44 44 44 00 00 00 00  returns 0x00 (0000ms, 0600ms total)
T104C 000:982 JLINK_ReadMem (0x4001180C, 0x0004 Bytes, ...) -- CPU_ReadMem(4 bytes @ 0x4001180C) - Data: 00 00 00 00  returns 0x00 (0001ms, 0601ms total)
T104C 000:983 JLINK_ReadMem (0x40011818, 0x0004 Bytes, ...) -- CPU_ReadMem(4 bytes @ 0x40011818) - Data: 00 00 00 00  returns 0x00 (0001ms, 0602ms total)
T104C 000:999 JLINK_ReadMem (0x40012000, 0x000C Bytes, ...) -- CPU_ReadMem(12 bytes @ 0x40012000) - Data: 44 44 44 44 44 44 44 44 00 00 00 00  returns 0x00 (0001ms, 0603ms total)
T104C 001:000 JLINK_ReadMem (0x4001200C, 0x0004 Bytes, ...) -- CPU_ReadMem(4 bytes @ 0x4001200C) - Data: 00 00 00 00  returns 0x00 (0000ms, 0603ms total)
T104C 001:000 JLINK_ReadMem (0x40012018, 0x0004 Bytes, ...) -- CPU_ReadMem(4 bytes @ 0x40012018) - Data: 00 00 00 00  returns 0x00 (0001ms, 0604ms total)
T104C 001:016 JLINK_ReadMem (0x40000000, 0x0010 Bytes, ...) -- CPU_ReadMem(16 bytes @ 0x40000000) - Data: 00 00 00 00 00 00 00 00 00 00 00 00 00 00 00 00  returns 0x00 (0001ms, 0605ms total)
T104C 001:017 JLINK_ReadMem (0x40000010, 0x0004 Bytes, ...) -- CPU_ReadMem(4 bytes @ 0x40000010) - Data: 00 00 00 00  returns 0x00 (0000ms, 0605ms total)
T104C 001:017 JLINK_ReadMem (0x40000018, 0x0014 Bytes, ...) -- CPU_ReadMem(20 bytes @ 0x40000018) - Data: 00 00 00 00 00 00 00 00 00 00 00 00 00 00 00 00 ...  returns 0x00 (0001ms, 0606ms total)
T104C 001:018 JLINK_ReadMem (0x4000002C, 0x0004 Bytes, ...) -- CPU_ReadMem(4 bytes @ 0x4000002C) - Data: 00 00 00 00  returns 0x00 (0001ms, 0607ms total)
T104C 001:019 JLINK_ReadMem (0x40000034, 0x000C Bytes, ...) -- CPU_ReadMem(12 bytes @ 0x40000034) - Data: 00 00 00 00 00 00 00 00 00 00 00 00  returns 0x00 (0000ms, 0607ms total)
T104C 001:019 JLINK_ReadMem (0x40000040, 0x0004 Bytes, ...) -- CPU_ReadMem(4 bytes @ 0x40000040) - Data: 00 00 00 00  returns 0x00 (0001ms, 0608ms total)
T104C 001:020 JLINK_ReadMem (0x40000048, 0x0004 Bytes, ...) -- CPU_ReadMem(4 bytes @ 0x40000048) - Data: 00 00 00 00  returns 0x00 (0000ms, 0608ms total)
T104C 001:020 JLINK_ReadMem (0x4000004C, 0x0004 Bytes, ...) -- CPU_ReadMem(4 bytes @ 0x4000004C) - Data: 00 00 00 00  returns 0x00 (0001ms, 0609ms total)
T104C 001:036 JLINK_ReadMem (0x40013800, 0x0018 Bytes, ...) -- CPU_ReadMem(24 bytes @ 0x40013800) - Data: 00 00 00 00 00 00 00 00 00 00 00 00 00 00 00 00 ...  returns 0x00 (0000ms, 0609ms total)
T104C 001:036 JLINK_ReadMem (0x40013818, 0x0004 Bytes, ...) -- CPU_ReadMem(4 bytes @ 0x40013818) - Data: 00 00 00 00  returns 0x00 (0001ms, 0610ms total)
T104C 001:930 JLINK_ReadMem (0x08001128, 0x0005 Bytes, ...) -- CPU_ReadMem(64 bytes @ 0x08001100) -- Updating C cache (64 bytes @ 0x08001100) -- Read from C cache (5 bytes @ 0x08001128) - Data: 34 43 10 10 01  returns 0x00 (0001ms, 0611ms total)
T104C 001:935 JLINK_ReadMem (0x0800112D, 0x0005 Bytes, ...) -- Read from C cache (5 bytes @ 0x0800112D) - Data: 34 43 10 10 01  returns 0x00 (0000ms, 0611ms total)
T104C 001:949 JLINK_ReadMem (0x20000004, 0x0001 Bytes, ...) -- CPU_ReadMem(64 bytes @ 0x20000000) -- Updating C cache (64 bytes @ 0x20000000) -- Read from C cache (1 bytes @ 0x20000004) - Data: 0D  returns 0x00 (0001ms, 0612ms total)
T104C 001:959 JLINK_ReadMem (0x20000020, 0x0020 Bytes, ...) -- Read from C cache (32 bytes @ 0x20000020) - Data: 05 E0 03 78 40 1C 93 42 01 D0 01 20 70 47 49 1E ...  returns 0x00 (0000ms, 0612ms total)
T104C 001:971 JLINK_ReadMem (0x40010C00, 0x000C Bytes, ...) -- CPU_ReadMem(12 bytes @ 0x40010C00) - Data: 44 44 48 44 44 44 44 44 00 00 00 00  returns 0x00 (0000ms, 0612ms total)
T104C 001:971 JLINK_ReadMem (0x40010C0C, 0x0004 Bytes, ...) -- CPU_ReadMem(4 bytes @ 0x40010C0C) - Data: 10 00 00 00  returns 0x00 (0010ms, 0622ms total)
T104C 001:981 JLINK_ReadMem (0x40010C18, 0x0004 Bytes, ...) -- CPU_ReadMem(4 bytes @ 0x40010C18) - Data: 00 00 00 00  returns 0x00 (0000ms, 0622ms total)
T104C 001:982 JLINK_ReadMem (0x40011800, 0x000C Bytes, ...) -- CPU_ReadMem(12 bytes @ 0x40011800) - Data: 44 44 44 44 44 44 44 44 00 00 00 00  returns 0x00 (0000ms, 0622ms total)
T104C 001:982 JLINK_ReadMem (0x4001180C, 0x0004 Bytes, ...) -- CPU_ReadMem(4 bytes @ 0x4001180C) - Data: 00 00 00 00  returns 0x00 (0001ms, 0623ms total)
T104C 001:983 JLINK_ReadMem (0x40011818, 0x0004 Bytes, ...) -- CPU_ReadMem(4 bytes @ 0x40011818) - Data: 00 00 00 00  returns 0x00 (0000ms, 0623ms total)
T104C 001:983 JLINK_ReadMem (0x40000000, 0x0010 Bytes, ...) -- CPU_ReadMem(16 bytes @ 0x40000000) - Data: 00 00 00 00 00 00 00 00 00 00 00 00 00 00 00 00  returns 0x00 (0001ms, 0624ms total)
T104C 001:984 JLINK_ReadMem (0x40000010, 0x0004 Bytes, ...) -- CPU_ReadMem(4 bytes @ 0x40000010) - Data: 00 00 00 00  returns 0x00 (0001ms, 0625ms total)
T104C 001:985 JLINK_ReadMem (0x40000018, 0x0014 Bytes, ...) -- CPU_ReadMem(20 bytes @ 0x40000018) - Data: 00 00 00 00 00 00 00 00 00 00 00 00 00 00 00 00 ...  returns 0x00 (0000ms, 0625ms total)
T104C 001:985 JLINK_ReadMem (0x4000002C, 0x0004 Bytes, ...) -- CPU_ReadMem(4 bytes @ 0x4000002C) - Data: 00 00 00 00  returns 0x00 (0001ms, 0626ms total)
T104C 001:986 JLINK_ReadMem (0x40000034, 0x000C Bytes, ...) -- CPU_ReadMem(12 bytes @ 0x40000034) - Data: 00 00 00 00 00 00 00 00 00 00 00 00  returns 0x00 (0000ms, 0626ms total)
T104C 001:986 JLINK_ReadMem (0x40000040, 0x0004 Bytes, ...) -- CPU_ReadMem(4 bytes @ 0x40000040) - Data: 00 00 00 00  returns 0x00 (0001ms, 0627ms total)
T104C 001:987 JLINK_ReadMem (0x40000048, 0x0004 Bytes, ...) -- CPU_ReadMem(4 bytes @ 0x40000048) - Data: 00 00 00 00  returns 0x00 (0000ms, 0627ms total)
T104C 001:987 JLINK_ReadMem (0x4000004C, 0x0004 Bytes, ...) -- CPU_ReadMem(4 bytes @ 0x4000004C) - Data: 00 00 00 00  returns 0x00 (0001ms, 0628ms total)
T104C 001:988 JLINK_ReadMem (0x40013800, 0x0018 Bytes, ...) -- CPU_ReadMem(24 bytes @ 0x40013800) - Data: 00 00 00 00 00 00 00 00 00 00 00 00 00 00 00 00 ...  returns 0x00 (0001ms, 0629ms total)
T104C 001:989 JLINK_ReadMem (0x40013818, 0x0004 Bytes, ...) -- CPU_ReadMem(4 bytes @ 0x40013818) - Data: 00 00 00 00  returns 0x00 (0000ms, 0629ms total)
T104C 001:989 JLINK_ReadMem (0x40010800, 0x000C Bytes, ...) -- CPU_ReadMem(12 bytes @ 0x40010800) - Data: 44 44 44 44 44 44 84 88 00 00 00 00  returns 0x00 (0001ms, 0630ms total)
T104C 001:990 JLINK_ReadMem (0x4001080C, 0x0004 Bytes, ...) -- CPU_ReadMem(4 bytes @ 0x4001080C) - Data: 00 A0 00 00  returns 0x00 (0000ms, 0630ms total)
T104C 001:990 JLINK_ReadMem (0x40010818, 0x0004 Bytes, ...) -- CPU_ReadMem(4 bytes @ 0x40010818) - Data: 00 00 00 00  returns 0x00 (0001ms, 0631ms total)
T104C 001:991 JLINK_ReadMem (0x40012000, 0x000C Bytes, ...) -- CPU_ReadMem(12 bytes @ 0x40012000) - Data: 44 44 44 44 44 44 44 44 00 00 00 00  returns 0x00 (0000ms, 0631ms total)
T104C 001:991 JLINK_ReadMem (0x4001200C, 0x0004 Bytes, ...) -- CPU_ReadMem(4 bytes @ 0x4001200C) - Data: 00 00 00 00  returns 0x00 (0001ms, 0632ms total)
T104C 001:992 JLINK_ReadMem (0x40012018, 0x0004 Bytes, ...) -- CPU_ReadMem(4 bytes @ 0x40012018) - Data: 00 00 00 00  returns 0x00 (0000ms, 0632ms total)
T0EC8 005:358 JLINK_Go() -- CPU_WriteMem(4 bytes @ 0xE0001004) (0002ms, 0634ms total)
T0EC8 005:460 JLINK_IsHalted()  returns FALSE (0000ms, 0634ms total)
T0EC8 005:560 JLINK_IsHalted()  returns FALSE (0000ms, 0634ms total)
T0EC8 005:660 JLINK_IsHalted()  returns FALSE (0000ms, 0634ms total)
T0EC8 005:760 JLINK_IsHalted()  returns FALSE (0000ms, 0634ms total)
T0EC8 005:860 JLINK_IsHalted()  returns FALSE (0000ms, 0634ms total)
T0EC8 005:960 JLINK_ReadMemU32(0xE0001004, 0x0001 Items, ...) -- CPU is running -- CPU_ReadMem(4 bytes @ 0xE0001004) - Data: 88 A1 92 02  returns 0x01 (0000ms, 0634ms total)
T104C 005:960 JLINK_ReadMem (0x08001128, 0x0005 Bytes, ...) -- CPU is running -- CPU_ReadMem(5 bytes @ 0x08001128) - Data: 34 43 10 10 01  returns 0x00 (0001ms, 0635ms total)
T104C 005:961 JLINK_ReadMem (0x0800112D, 0x0005 Bytes, ...) -- CPU is running -- CPU_ReadMem(5 bytes @ 0x0800112D) - Data: 34 43 10 10 01  returns 0x00 (0001ms, 0636ms total)
T104C 005:962 JLINK_ReadMem (0x20000004, 0x0001 Bytes, ...) -- CPU is running -- CPU_ReadMem(1 bytes @ 0x20000004) - Data: 00  returns 0x00 (0001ms, 0637ms total)
T104C 005:963 JLINK_ReadMem (0x20000020, 0x0020 Bytes, ...) -- CPU is running -- CPU_ReadMem(32 bytes @ 0x20000020) - Data: 00 00 00 00 00 00 00 00 00 00 00 00 00 00 00 00 ...  returns 0x00 (0009ms, 0646ms total)
T104C 005:972 JLINK_ReadMem (0x40010C00, 0x000C Bytes, ...) -- CPU is running -- CPU_ReadMem(12 bytes @ 0x40010C00) - Data: 44 44 28 44 44 44 94 99 D3 DE 00 00  returns 0x00 (0000ms, 0646ms total)
T104C 005:972 JLINK_ReadMem (0x40010C0C, 0x0004 Bytes, ...) -- CPU is running -- CPU_ReadMem(4 bytes @ 0x40010C0C) - Data: 10 00 00 00  returns 0x00 (0001ms, 0647ms total)
T104C 005:973 JLINK_ReadMem (0x40010C18, 0x0004 Bytes, ...) -- CPU is running -- CPU_ReadMem(4 bytes @ 0x40010C18) - Data: 00 00 00 00  returns 0x00 (0000ms, 0647ms total)
T104C 005:974 JLINK_ReadMem (0x40011800, 0x000C Bytes, ...) -- CPU is running -- CPU_ReadMem(12 bytes @ 0x40011800) - Data: 44 44 24 44 44 44 44 44 5C 60 00 00  returns 0x00 (0000ms, 0647ms total)
T104C 005:974 JLINK_ReadMem (0x4001180C, 0x0004 Bytes, ...) -- CPU is running -- CPU_ReadMem(4 bytes @ 0x4001180C) - Data: 00 00 00 00  returns 0x00 (0001ms, 0648ms total)
T104C 005:975 JLINK_ReadMem (0x40011818, 0x0004 Bytes, ...) -- CPU is running -- CPU_ReadMem(4 bytes @ 0x40011818) - Data: 00 00 00 00  returns 0x00 (0000ms, 0648ms total)
T104C 005:976 JLINK_ReadMem (0x40000000, 0x0010 Bytes, ...) -- CPU is running -- CPU_ReadMem(16 bytes @ 0x40000000) - Data: 01 00 00 00 00 00 00 00 00 00 00 00 00 00 00 00  returns 0x00 (0000ms, 0648ms total)
T104C 005:976 JLINK_ReadMem (0x40000010, 0x0004 Bytes, ...) -- CPU is running -- CPU_ReadMem(4 bytes @ 0x40000010) - Data: 1E 00 00 00  returns 0x00 (0001ms, 0649ms total)
T104C 005:977 JLINK_ReadMem (0x40000018, 0x0014 Bytes, ...) -- CPU is running -- CPU_ReadMem(20 bytes @ 0x40000018) - Data: 00 00 00 00 00 00 00 00 00 00 00 00 82 7E 00 00 ...  returns 0x00 (0000ms, 0649ms total)
T104C 005:977 JLINK_ReadMem (0x4000002C, 0x0004 Bytes, ...) -- CPU is running -- CPU_ReadMem(4 bytes @ 0x4000002C) - Data: 50 C3 00 00  returns 0x00 (0001ms, 0650ms total)
T104C 005:978 JLINK_ReadMem (0x40000034, 0x000C Bytes, ...) -- CPU is running -- CPU_ReadMem(12 bytes @ 0x40000034) - Data: 00 00 00 00 00 00 00 00 00 00 00 00  returns 0x00 (0000ms, 0650ms total)
T104C 005:978 JLINK_ReadMem (0x40000040, 0x0004 Bytes, ...) -- CPU is running -- CPU_ReadMem(4 bytes @ 0x40000040) - Data: 00 00 00 00  returns 0x00 (0001ms, 0651ms total)
T104C 005:979 JLINK_ReadMem (0x40000048, 0x0004 Bytes, ...) -- CPU is running -- CPU_ReadMem(4 bytes @ 0x40000048) - Data: 00 00 00 00  returns 0x00 (0000ms, 0651ms total)
T104C 005:979 JLINK_ReadMem (0x4000004C, 0x0004 Bytes, ...) -- CPU is running -- CPU_ReadMem(4 bytes @ 0x4000004C) - Data: 01 00 00 00  returns 0x00 (0001ms, 0652ms total)
T104C 005:980 JLINK_ReadMem (0x40013800, 0x0018 Bytes, ...) -- CPU is running -- CPU_ReadMem(24 bytes @ 0x40013800) - Data: C0 00 00 00 00 00 00 00 4C 1D 00 00 0C 20 00 00 ...  returns 0x00 (0001ms, 0653ms total)
T104C 005:981 JLINK_ReadMem (0x40013818, 0x0004 Bytes, ...) -- CPU is running -- CPU_ReadMem(4 bytes @ 0x40013818) - Data: 00 00 00 00  returns 0x00 (0000ms, 0653ms total)
T104C 005:986 JLINK_ReadMem (0x40010800, 0x000C Bytes, ...) -- CPU is running -- CPU_ReadMem(12 bytes @ 0x40010800) - Data: 44 44 44 44 A4 44 84 88 FF 9E 00 00  returns 0x00 (0001ms, 0654ms total)
T104C 005:987 JLINK_ReadMem (0x4001080C, 0x0004 Bytes, ...) -- CPU is running -- CPU_ReadMem(4 bytes @ 0x4001080C) - Data: 00 A0 00 00  returns 0x00 (0000ms, 0654ms total)
T104C 005:987 JLINK_ReadMem (0x40010818, 0x0004 Bytes, ...) -- CPU is running -- CPU_ReadMem(4 bytes @ 0x40010818) - Data: 00 00 00 00  returns 0x00 (0001ms, 0655ms total)
T104C 005:988 JLINK_ReadMem (0x40012000, 0x000C Bytes, ...) -- CPU is running -- CPU_ReadMem(12 bytes @ 0x40012000) - Data: 44 44 44 18 41 44 44 44 C3 FE 00 00  returns 0x00 (0001ms, 0656ms total)
T104C 005:989 JLINK_ReadMem (0x4001200C, 0x0004 Bytes, ...) -- CPU is running -- CPU_ReadMem(4 bytes @ 0x4001200C) - Data: C0 00 00 00  returns 0x00 (0000ms, 0656ms total)
T104C 005:989 JLINK_ReadMem (0x40012018, 0x0004 Bytes, ...) -- CPU is running -- CPU_ReadMem(4 bytes @ 0x40012018) - Data: 00 00 00 00  returns 0x00 (0001ms, 0657ms total)
T0EC8 005:993 JLINK_IsHalted()  returns FALSE (0001ms, 0658ms total)
T0EC8 006:094 JLINK_IsHalted()  returns FALSE (0000ms, 0657ms total)
T0EC8 006:194 JLINK_IsHalted()  returns FALSE (0000ms, 0657ms total)
T0EC8 006:294 JLINK_IsHalted()  returns FALSE (0000ms, 0657ms total)
T0EC8 006:394 JLINK_IsHalted()  returns FALSE (0000ms, 0657ms total)
T0EC8 006:494 JLINK_ReadMemU32(0xE0001004, 0x0001 Items, ...) -- CPU is running -- CPU_ReadMem(4 bytes @ 0xE0001004) - Data: 73 54 DD 04  returns 0x01 (0000ms, 0657ms total)
T104C 006:494 JLINK_ReadMem (0x08001128, 0x0005 Bytes, ...) -- CPU is running -- CPU_ReadMem(5 bytes @ 0x08001128) - Data: 34 43 10 10 01  returns 0x00 (0001ms, 0658ms total)
T104C 006:495 JLINK_ReadMem (0x0800112D, 0x0005 Bytes, ...) -- CPU is running -- CPU_ReadMem(5 bytes @ 0x0800112D) - Data: 34 43 10 10 01  returns 0x00 (0001ms, 0659ms total)
T104C 006:496 JLINK_ReadMem (0x20000004, 0x0001 Bytes, ...) -- CPU is running -- CPU_ReadMem(1 bytes @ 0x20000004) - Data: 00  returns 0x00 (0001ms, 0660ms total)
T104C 006:497 JLINK_ReadMem (0x20000020, 0x0020 Bytes, ...) -- CPU is running -- CPU_ReadMem(32 bytes @ 0x20000020) - Data: 00 00 00 00 00 00 00 00 00 00 00 00 00 00 00 00 ...  returns 0x00 (0001ms, 0661ms total)
T104C 006:498 JLINK_ReadMem (0x40010C00, 0x000C Bytes, ...) -- CPU is running -- CPU_ReadMem(12 bytes @ 0x40010C00) - Data: 44 44 28 44 44 44 94 99 D3 DE 00 00  returns 0x00 (0000ms, 0661ms total)
T104C 006:498 JLINK_ReadMem (0x40010C0C, 0x0004 Bytes, ...) -- CPU is running -- CPU_ReadMem(4 bytes @ 0x40010C0C) - Data: 10 00 00 00  returns 0x00 (0001ms, 0662ms total)
T104C 006:499 JLINK_ReadMem (0x40010C18, 0x0004 Bytes, ...) -- CPU is running -- CPU_ReadMem(4 bytes @ 0x40010C18) - Data: 00 00 00 00  returns 0x00 (0000ms, 0662ms total)
T104C 006:500 JLINK_ReadMem (0x40011800, 0x000C Bytes, ...) -- CPU is running -- CPU_ReadMem(12 bytes @ 0x40011800) - Data: 44 44 24 44 44 44 44 44 5C 60 00 00  returns 0x00 (0000ms, 0662ms total)
T104C 006:500 JLINK_ReadMem (0x4001180C, 0x0004 Bytes, ...) -- CPU is running -- CPU_ReadMem(4 bytes @ 0x4001180C) - Data: 00 00 00 00  returns 0x00 (0001ms, 0663ms total)
T104C 006:501 JLINK_ReadMem (0x40011818, 0x0004 Bytes, ...) -- CPU is running -- CPU_ReadMem(4 bytes @ 0x40011818) - Data: 00 00 00 00  returns 0x00 (0000ms, 0663ms total)
T104C 006:501 JLINK_ReadMem (0x40000000, 0x0010 Bytes, ...) -- CPU is running -- CPU_ReadMem(16 bytes @ 0x40000000) - Data: 01 00 00 00 00 00 00 00 00 00 00 00 00 00 00 00  returns 0x00 (0001ms, 0664ms total)
T104C 006:502 JLINK_ReadMem (0x40000010, 0x0004 Bytes, ...) -- CPU is running -- CPU_ReadMem(4 bytes @ 0x40000010) - Data: 1E 00 00 00  returns 0x00 (0000ms, 0664ms total)
T104C 006:502 JLINK_ReadMem (0x40000018, 0x0014 Bytes, ...) -- CPU is running -- CPU_ReadMem(20 bytes @ 0x40000018) - Data: 00 00 00 00 00 00 00 00 00 00 00 00 55 84 00 00 ...  returns 0x00 (0001ms, 0665ms total)
T104C 006:503 JLINK_ReadMem (0x4000002C, 0x0004 Bytes, ...) -- CPU is running -- CPU_ReadMem(4 bytes @ 0x4000002C) - Data: 50 C3 00 00  returns 0x00 (0001ms, 0666ms total)
T104C 006:504 JLINK_ReadMem (0x40000034, 0x000C Bytes, ...) -- CPU is running -- CPU_ReadMem(12 bytes @ 0x40000034) - Data: 00 00 00 00 00 00 00 00 00 00 00 00  returns 0x00 (0000ms, 0666ms total)
T104C 006:504 JLINK_ReadMem (0x40000040, 0x0004 Bytes, ...) -- CPU is running -- CPU_ReadMem(4 bytes @ 0x40000040) - Data: 00 00 00 00  returns 0x00 (0001ms, 0667ms total)
T104C 006:505 JLINK_ReadMem (0x40000048, 0x0004 Bytes, ...) -- CPU is running -- CPU_ReadMem(4 bytes @ 0x40000048) - Data: 00 00 00 00  returns 0x00 (0000ms, 0667ms total)
T104C 006:505 JLINK_ReadMem (0x4000004C, 0x0004 Bytes, ...) -- CPU is running -- CPU_ReadMem(4 bytes @ 0x4000004C) - Data: 01 00 00 00  returns 0x00 (0001ms, 0668ms total)
T104C 006:506 JLINK_ReadMem (0x40013800, 0x0018 Bytes, ...) -- CPU is running -- CPU_ReadMem(24 bytes @ 0x40013800) - Data: C0 00 00 00 00 00 00 00 4C 1D 00 00 0C 20 00 00 ...  returns 0x00 (0000ms, 0668ms total)
T104C 006:506 JLINK_ReadMem (0x40013818, 0x0004 Bytes, ...) -- CPU is running -- CPU_ReadMem(4 bytes @ 0x40013818) - Data: 00 00 00 00  returns 0x00 (0001ms, 0669ms total)
T104C 006:507 JLINK_ReadMem (0x40010800, 0x000C Bytes, ...) -- CPU is running -- CPU_ReadMem(12 bytes @ 0x40010800) - Data: 44 44 44 44 A4 44 84 88 FF 9E 00 00  returns 0x00 (0001ms, 0670ms total)
T104C 006:508 JLINK_ReadMem (0x4001080C, 0x0004 Bytes, ...) -- CPU is running -- CPU_ReadMem(4 bytes @ 0x4001080C) - Data: 00 A0 00 00  returns 0x00 (0000ms, 0670ms total)
T104C 006:508 JLINK_ReadMem (0x40010818, 0x0004 Bytes, ...) -- CPU is running -- CPU_ReadMem(4 bytes @ 0x40010818) - Data: 00 00 00 00  returns 0x00 (0001ms, 0671ms total)
T104C 006:509 JLINK_ReadMem (0x40012000, 0x000C Bytes, ...) -- CPU is running -- CPU_ReadMem(12 bytes @ 0x40012000) - Data: 44 44 44 18 41 44 44 44 C3 FE 00 00  returns 0x00 (0000ms, 0671ms total)
T104C 006:509 JLINK_ReadMem (0x4001200C, 0x0004 Bytes, ...) -- CPU is running -- CPU_ReadMem(4 bytes @ 0x4001200C) - Data: C0 00 00 00  returns 0x00 (0001ms, 0672ms total)
T104C 006:510 JLINK_ReadMem (0x40012018, 0x0004 Bytes, ...) -- CPU is running -- CPU_ReadMem(4 bytes @ 0x40012018) - Data: 00 00 00 00  returns 0x00 (0000ms, 0672ms total)
T0EC8 006:513 JLINK_IsHalted()  returns FALSE (0000ms, 0672ms total)
T0EC8 006:613 JLINK_IsHalted()  returns FALSE (0000ms, 0672ms total)
T0EC8 006:713 JLINK_IsHalted()  returns FALSE (0000ms, 0672ms total)
T0EC8 006:813 JLINK_IsHalted()  returns FALSE (0000ms, 0672ms total)
T0EC8 006:913 JLINK_IsHalted()  returns FALSE (0001ms, 0673ms total)
T0EC8 007:014 JLINK_ReadMemU32(0xE0001004, 0x0001 Items, ...) -- CPU is running -- CPU_ReadMem(4 bytes @ 0xE0001004) - Data: EA A4 18 07  returns 0x01 (0000ms, 0672ms total)
T104C 007:014 JLINK_ReadMem (0x08001128, 0x0005 Bytes, ...) -- CPU is running -- CPU_ReadMem(5 bytes @ 0x08001128) - Data: 34 43 10 10 01  returns 0x00 (0001ms, 0673ms total)
T104C 007:015 JLINK_ReadMem (0x0800112D, 0x0005 Bytes, ...) -- CPU is running -- CPU_ReadMem(5 bytes @ 0x0800112D) - Data: 34 43 10 10 01  returns 0x00 (0001ms, 0674ms total)
T104C 007:016 JLINK_ReadMem (0x20000004, 0x0001 Bytes, ...) -- CPU is running -- CPU_ReadMem(1 bytes @ 0x20000004) - Data: 00  returns 0x00 (0001ms, 0675ms total)
T104C 007:017 JLINK_ReadMem (0x20000020, 0x0020 Bytes, ...) -- CPU is running -- CPU_ReadMem(32 bytes @ 0x20000020) - Data: 00 00 00 00 00 00 00 00 00 00 00 00 00 00 00 00 ...  returns 0x00 (0001ms, 0676ms total)
T104C 007:018 JLINK_ReadMem (0x40010C00, 0x000C Bytes, ...) -- CPU is running -- CPU_ReadMem(12 bytes @ 0x40010C00) - Data: 44 44 28 44 44 44 94 99 F3 1E 00 00  returns 0x00 (0000ms, 0676ms total)
T104C 007:018 JLINK_ReadMem (0x40010C0C, 0x0004 Bytes, ...) -- CPU is running -- CPU_ReadMem(4 bytes @ 0x40010C0C) - Data: 30 00 00 00  returns 0x00 (0001ms, 0677ms total)
T104C 007:019 JLINK_ReadMem (0x40010C18, 0x0004 Bytes, ...) -- CPU is running -- CPU_ReadMem(4 bytes @ 0x40010C18) - Data: 00 00 00 00  returns 0x00 (0000ms, 0677ms total)
T104C 007:020 JLINK_ReadMem (0x40011800, 0x000C Bytes, ...) -- CPU is running -- CPU_ReadMem(12 bytes @ 0x40011800) - Data: 44 44 28 44 44 44 44 44 7C 60 00 00  returns 0x00 (0000ms, 0677ms total)
T104C 007:020 JLINK_ReadMem (0x4001180C, 0x0004 Bytes, ...) -- CPU is running -- CPU_ReadMem(4 bytes @ 0x4001180C) - Data: 30 00 00 00  returns 0x00 (0001ms, 0678ms total)
T104C 007:021 JLINK_ReadMem (0x40011818, 0x0004 Bytes, ...) -- CPU is running -- CPU_ReadMem(4 bytes @ 0x40011818) - Data: 00 00 00 00  returns 0x00 (0000ms, 0678ms total)
T104C 007:021 JLINK_ReadMem (0x40000000, 0x0010 Bytes, ...) -- CPU is running -- CPU_ReadMem(16 bytes @ 0x40000000) - Data: 01 00 00 00 00 00 00 00 00 00 00 00 00 00 00 00  returns 0x00 (0001ms, 0679ms total)
T104C 007:022 JLINK_ReadMem (0x40000010, 0x0004 Bytes, ...) -- CPU is running -- CPU_ReadMem(4 bytes @ 0x40000010) - Data: 1E 00 00 00  returns 0x00 (0001ms, 0680ms total)
T104C 007:023 JLINK_ReadMem (0x40000018, 0x0014 Bytes, ...) -- CPU is running -- CPU_ReadMem(20 bytes @ 0x40000018) - Data: 00 00 00 00 00 00 00 00 00 00 00 00 2A 4D 00 00 ...  returns 0x00 (0000ms, 0680ms total)
T104C 007:023 JLINK_ReadMem (0x4000002C, 0x0004 Bytes, ...) -- CPU is running -- CPU_ReadMem(4 bytes @ 0x4000002C) - Data: 50 C3 00 00  returns 0x00 (0001ms, 0681ms total)
T104C 007:024 JLINK_ReadMem (0x40000034, 0x000C Bytes, ...) -- CPU is running -- CPU_ReadMem(12 bytes @ 0x40000034) - Data: 00 00 00 00 00 00 00 00 00 00 00 00  returns 0x00 (0000ms, 0681ms total)
T104C 007:024 JLINK_ReadMem (0x40000040, 0x0004 Bytes, ...) -- CPU is running -- CPU_ReadMem(4 bytes @ 0x40000040) - Data: 00 00 00 00  returns 0x00 (0001ms, 0682ms total)
T104C 007:025 JLINK_ReadMem (0x40000048, 0x0004 Bytes, ...) -- CPU is running -- CPU_ReadMem(4 bytes @ 0x40000048) - Data: 00 00 00 00  returns 0x00 (0000ms, 0682ms total)
T104C 007:025 JLINK_ReadMem (0x4000004C, 0x0004 Bytes, ...) -- CPU is running -- CPU_ReadMem(4 bytes @ 0x4000004C) - Data: 01 00 00 00  returns 0x00 (0001ms, 0683ms total)
T104C 007:026 JLINK_ReadMem (0x40013800, 0x0018 Bytes, ...) -- CPU is running -- CPU_ReadMem(24 bytes @ 0x40013800) - Data: C0 00 00 00 00 00 00 00 4C 1D 00 00 0C 20 00 00 ...  returns 0x00 (0001ms, 0684ms total)
T104C 007:027 JLINK_ReadMem (0x40013818, 0x0004 Bytes, ...) -- CPU is running -- CPU_ReadMem(4 bytes @ 0x40013818) - Data: 00 00 00 00  returns 0x00 (0000ms, 0684ms total)
T104C 007:027 JLINK_ReadMem (0x40010800, 0x000C Bytes, ...) -- CPU is running -- CPU_ReadMem(12 bytes @ 0x40010800) - Data: 44 44 44 44 A4 44 84 88 FF 9E 00 00  returns 0x00 (0001ms, 0685ms total)
T104C 007:028 JLINK_ReadMem (0x4001080C, 0x0004 Bytes, ...) -- CPU is running -- CPU_ReadMem(4 bytes @ 0x4001080C) - Data: 00 A0 00 00  returns 0x00 (0000ms, 0685ms total)
T104C 007:028 JLINK_ReadMem (0x40010818, 0x0004 Bytes, ...) -- CPU is running -- CPU_ReadMem(4 bytes @ 0x40010818) - Data: 00 00 00 00  returns 0x00 (0001ms, 0686ms total)
T104C 007:029 JLINK_ReadMem (0x40012000, 0x000C Bytes, ...) -- CPU is running -- CPU_ReadMem(12 bytes @ 0x40012000) - Data: 44 44 44 18 41 44 44 44 C3 FF 00 00  returns 0x00 (0000ms, 0686ms total)
T104C 007:029 JLINK_ReadMem (0x4001200C, 0x0004 Bytes, ...) -- CPU is running -- CPU_ReadMem(4 bytes @ 0x4001200C) - Data: C0 01 00 00  returns 0x00 (0001ms, 0687ms total)
T104C 007:030 JLINK_ReadMem (0x40012018, 0x0004 Bytes, ...) -- CPU is running -- CPU_ReadMem(4 bytes @ 0x40012018) - Data: 00 00 00 00  returns 0x00 (0000ms, 0687ms total)
T0EC8 007:033 JLINK_IsHalted()  returns FALSE (0000ms, 0687ms total)
T0EC8 007:133 JLINK_IsHalted()  returns FALSE (0000ms, 0687ms total)
T0EC8 007:233 JLINK_IsHalted()  returns FALSE (0000ms, 0687ms total)
T0EC8 007:333 JLINK_IsHalted()  returns FALSE (0000ms, 0687ms total)
T0EC8 007:433 JLINK_IsHalted()  returns FALSE (0000ms, 0687ms total)
T0EC8 007:533 JLINK_ReadMemU32(0xE0001004, 0x0001 Items, ...) -- CPU is running -- CPU_ReadMem(4 bytes @ 0xE0001004) - Data: DF DD 52 09  returns 0x01 (0000ms, 0687ms total)
T104C 007:533 JLINK_ReadMem (0x08001128, 0x0005 Bytes, ...) -- CPU is running -- CPU_ReadMem(5 bytes @ 0x08001128) - Data: 34 43 10 10 01  returns 0x00 (0001ms, 0688ms total)
T104C 007:534 JLINK_ReadMem (0x0800112D, 0x0005 Bytes, ...) -- CPU is running -- CPU_ReadMem(5 bytes @ 0x0800112D) - Data: 34 43 10 10 01  returns 0x00 (0001ms, 0689ms total)
T104C 007:535 JLINK_ReadMem (0x20000004, 0x0001 Bytes, ...) -- CPU is running -- CPU_ReadMem(1 bytes @ 0x20000004) - Data: 00  returns 0x00 (0001ms, 0690ms total)
T104C 007:536 JLINK_ReadMem (0x20000020, 0x0020 Bytes, ...) -- CPU is running -- CPU_ReadMem(32 bytes @ 0x20000020) - Data: 00 00 00 00 00 00 00 00 00 00 00 00 00 00 00 00 ...  returns 0x00 (0001ms, 0691ms total)
T104C 007:537 JLINK_ReadMem (0x40010C00, 0x000C Bytes, ...) -- CPU is running -- CPU_ReadMem(12 bytes @ 0x40010C00) - Data: 44 44 28 44 44 44 94 99 D3 1E 00 00  returns 0x00 (0000ms, 0691ms total)
T104C 007:537 JLINK_ReadMem (0x40010C0C, 0x0004 Bytes, ...) -- CPU is running -- CPU_ReadMem(4 bytes @ 0x40010C0C) - Data: 10 00 00 00  returns 0x00 (0001ms, 0692ms total)
T104C 007:538 JLINK_ReadMem (0x40010C18, 0x0004 Bytes, ...) -- CPU is running -- CPU_ReadMem(4 bytes @ 0x40010C18) - Data: 00 00 00 00  returns 0x00 (0000ms, 0692ms total)
T104C 007:539 JLINK_ReadMem (0x40011800, 0x000C Bytes, ...) -- CPU is running -- CPU_ReadMem(12 bytes @ 0x40011800) - Data: 44 44 28 44 44 44 44 44 7C 60 00 00  returns 0x00 (0000ms, 0692ms total)
T104C 007:539 JLINK_ReadMem (0x4001180C, 0x0004 Bytes, ...) -- CPU is running -- CPU_ReadMem(4 bytes @ 0x4001180C) - Data: 30 00 00 00  returns 0x00 (0001ms, 0693ms total)
T104C 007:540 JLINK_ReadMem (0x40011818, 0x0004 Bytes, ...) -- CPU is running -- CPU_ReadMem(4 bytes @ 0x40011818) - Data: 00 00 00 00  returns 0x00 (0000ms, 0693ms total)
T104C 007:540 JLINK_ReadMem (0x40000000, 0x0010 Bytes, ...) -- CPU is running -- CPU_ReadMem(16 bytes @ 0x40000000) - Data: 01 00 00 00 00 00 00 00 00 00 00 00 00 00 00 00  returns 0x00 (0001ms, 0694ms total)
T104C 007:541 JLINK_ReadMem (0x40000010, 0x0004 Bytes, ...) -- CPU is running -- CPU_ReadMem(4 bytes @ 0x40000010) - Data: 1E 00 00 00  returns 0x00 (0000ms, 0694ms total)
T104C 007:541 JLINK_ReadMem (0x40000018, 0x0014 Bytes, ...) -- CPU is running -- CPU_ReadMem(20 bytes @ 0x40000018) - Data: 00 00 00 00 00 00 00 00 00 00 00 00 D7 0F 00 00 ...  returns 0x00 (0001ms, 0695ms total)
T104C 007:542 JLINK_ReadMem (0x4000002C, 0x0004 Bytes, ...) -- CPU is running -- CPU_ReadMem(4 bytes @ 0x4000002C) - Data: 50 C3 00 00  returns 0x00 (0001ms, 0696ms total)
T104C 007:543 JLINK_ReadMem (0x40000034, 0x000C Bytes, ...) -- CPU is running -- CPU_ReadMem(12 bytes @ 0x40000034) - Data: 00 00 00 00 00 00 00 00 00 00 00 00  returns 0x00 (0000ms, 0696ms total)
T104C 007:543 JLINK_ReadMem (0x40000040, 0x0004 Bytes, ...) -- CPU is running -- CPU_ReadMem(4 bytes @ 0x40000040) - Data: 00 00 00 00  returns 0x00 (0001ms, 0697ms total)
T104C 007:544 JLINK_ReadMem (0x40000048, 0x0004 Bytes, ...) -- CPU is running -- CPU_ReadMem(4 bytes @ 0x40000048) - Data: 00 00 00 00  returns 0x00 (0000ms, 0697ms total)
T104C 007:544 JLINK_ReadMem (0x4000004C, 0x0004 Bytes, ...) -- CPU is running -- CPU_ReadMem(4 bytes @ 0x4000004C) - Data: 01 00 00 00  returns 0x00 (0001ms, 0698ms total)
T104C 007:545 JLINK_ReadMem (0x40013800, 0x0018 Bytes, ...) -- CPU is running -- CPU_ReadMem(24 bytes @ 0x40013800) - Data: C0 00 00 00 00 00 00 00 4C 1D 00 00 0C 20 00 00 ...  returns 0x00 (0000ms, 0698ms total)
T104C 007:545 JLINK_ReadMem (0x40013818, 0x0004 Bytes, ...) -- CPU is running -- CPU_ReadMem(4 bytes @ 0x40013818) - Data: 00 00 00 00  returns 0x00 (0001ms, 0699ms total)
T104C 007:546 JLINK_ReadMem (0x40010800, 0x000C Bytes, ...) -- CPU is running -- CPU_ReadMem(12 bytes @ 0x40010800) - Data: 44 44 44 44 A4 44 84 88 FF 9E 00 00  returns 0x00 (0001ms, 0700ms total)
T104C 007:547 JLINK_ReadMem (0x4001080C, 0x0004 Bytes, ...) -- CPU is running -- CPU_ReadMem(4 bytes @ 0x4001080C) - Data: 00 A0 00 00  returns 0x00 (0000ms, 0700ms total)
T104C 007:547 JLINK_ReadMem (0x40010818, 0x0004 Bytes, ...) -- CPU is running -- CPU_ReadMem(4 bytes @ 0x40010818) - Data: 00 00 00 00  returns 0x00 (0001ms, 0701ms total)
T104C 007:548 JLINK_ReadMem (0x40012000, 0x000C Bytes, ...) -- CPU is running -- CPU_ReadMem(12 bytes @ 0x40012000) - Data: 44 44 44 18 41 44 44 44 C3 FF 00 00  returns 0x00 (0000ms, 0701ms total)
T104C 007:548 JLINK_ReadMem (0x4001200C, 0x0004 Bytes, ...) -- CPU is running -- CPU_ReadMem(4 bytes @ 0x4001200C) - Data: C0 01 00 00  returns 0x00 (0001ms, 0702ms total)
T104C 007:549 JLINK_ReadMem (0x40012018, 0x0004 Bytes, ...) -- CPU is running -- CPU_ReadMem(4 bytes @ 0x40012018) - Data: 00 00 00 00  returns 0x00 (0000ms, 0702ms total)
T0EC8 007:551 JLINK_IsHalted()  returns FALSE (0001ms, 0703ms total)
T0EC8 007:652 JLINK_IsHalted()  returns FALSE (0000ms, 0702ms total)
T0EC8 007:752 JLINK_IsHalted()  returns FALSE (0000ms, 0702ms total)
T0EC8 007:852 JLINK_IsHalted()  returns FALSE (0000ms, 0702ms total)
T0EC8 007:952 JLINK_IsHalted()  returns FALSE (0000ms, 0702ms total)
T0EC8 008:052 JLINK_ReadMemU32(0xE0001004, 0x0001 Items, ...) -- CPU is running -- CPU_ReadMem(4 bytes @ 0xE0001004) - Data: DA 3A 8D 0B  returns 0x01 (0000ms, 0702ms total)
T104C 008:052 JLINK_ReadMem (0x08001128, 0x0005 Bytes, ...) -- CPU is running -- CPU_ReadMem(5 bytes @ 0x08001128) - Data: 34 43 10 10 01  returns 0x00 (0001ms, 0703ms total)
T104C 008:053 JLINK_ReadMem (0x0800112D, 0x0005 Bytes, ...) -- CPU is running -- CPU_ReadMem(5 bytes @ 0x0800112D) - Data: 34 43 10 10 01  returns 0x00 (0001ms, 0704ms total)
T104C 008:054 JLINK_ReadMem (0x20000004, 0x0001 Bytes, ...) -- CPU is running -- CPU_ReadMem(1 bytes @ 0x20000004) - Data: 00  returns 0x00 (0001ms, 0705ms total)
T104C 008:055 JLINK_ReadMem (0x20000020, 0x0020 Bytes, ...) -- CPU is running -- CPU_ReadMem(32 bytes @ 0x20000020) - Data: 00 00 00 00 00 00 00 00 00 00 00 00 00 00 00 00 ...  returns 0x00 (0001ms, 0706ms total)
T104C 008:056 JLINK_ReadMem (0x40010C00, 0x000C Bytes, ...) -- CPU is running -- CPU_ReadMem(12 bytes @ 0x40010C00) - Data: 44 44 28 44 44 44 94 99 F3 1E 00 00  returns 0x00 (0000ms, 0706ms total)
T104C 008:056 JLINK_ReadMem (0x40010C0C, 0x0004 Bytes, ...) -- CPU is running -- CPU_ReadMem(4 bytes @ 0x40010C0C) - Data: 30 00 00 00  returns 0x00 (0001ms, 0707ms total)
T104C 008:057 JLINK_ReadMem (0x40010C18, 0x0004 Bytes, ...) -- CPU is running -- CPU_ReadMem(4 bytes @ 0x40010C18) - Data: 00 00 00 00  returns 0x00 (0000ms, 0707ms total)
T104C 008:058 JLINK_ReadMem (0x40011800, 0x000C Bytes, ...) -- CPU is running -- CPU_ReadMem(12 bytes @ 0x40011800) - Data: 44 44 28 44 44 44 44 44 7C 60 00 00  returns 0x00 (0000ms, 0707ms total)
T104C 008:058 JLINK_ReadMem (0x4001180C, 0x0004 Bytes, ...) -- CPU is running -- CPU_ReadMem(4 bytes @ 0x4001180C) - Data: 30 00 00 00  returns 0x00 (0001ms, 0708ms total)
T104C 008:059 JLINK_ReadMem (0x40011818, 0x0004 Bytes, ...) -- CPU is running -- CPU_ReadMem(4 bytes @ 0x40011818) - Data: 00 00 00 00  returns 0x00 (0000ms, 0708ms total)
T104C 008:059 JLINK_ReadMem (0x40000000, 0x0010 Bytes, ...) -- CPU is running -- CPU_ReadMem(16 bytes @ 0x40000000) - Data: 01 00 00 00 00 00 00 00 00 00 00 00 00 00 00 00  returns 0x00 (0001ms, 0709ms total)
T104C 008:060 JLINK_ReadMem (0x40000010, 0x0004 Bytes, ...) -- CPU is running -- CPU_ReadMem(4 bytes @ 0x40000010) - Data: 1E 00 00 00  returns 0x00 (0000ms, 0709ms total)
T104C 008:060 JLINK_ReadMem (0x40000018, 0x0014 Bytes, ...) -- CPU is running -- CPU_ReadMem(20 bytes @ 0x40000018) - Data: 00 00 00 00 00 00 00 00 00 00 00 00 98 96 00 00 ...  returns 0x00 (0001ms, 0710ms total)
T104C 008:061 JLINK_ReadMem (0x4000002C, 0x0004 Bytes, ...) -- CPU is running -- CPU_ReadMem(4 bytes @ 0x4000002C) - Data: 50 C3 00 00  returns 0x00 (0000ms, 0710ms total)
T104C 008:061 JLINK_ReadMem (0x40000034, 0x000C Bytes, ...) -- CPU is running -- CPU_ReadMem(12 bytes @ 0x40000034) - Data: 00 00 00 00 00 00 00 00 00 00 00 00  returns 0x00 (0001ms, 0711ms total)
T104C 008:062 JLINK_ReadMem (0x40000040, 0x0004 Bytes, ...) -- CPU is running -- CPU_ReadMem(4 bytes @ 0x40000040) - Data: 00 00 00 00  returns 0x00 (0000ms, 0711ms total)
T104C 008:062 JLINK_ReadMem (0x40000048, 0x0004 Bytes, ...) -- CPU is running -- CPU_ReadMem(4 bytes @ 0x40000048) - Data: 00 00 00 00  returns 0x00 (0001ms, 0712ms total)
T104C 008:063 JLINK_ReadMem (0x4000004C, 0x0004 Bytes, ...) -- CPU is running -- CPU_ReadMem(4 bytes @ 0x4000004C) - Data: 01 00 00 00  returns 0x00 (0000ms, 0712ms total)
T104C 008:064 JLINK_ReadMem (0x40013800, 0x0018 Bytes, ...) -- CPU is running -- CPU_ReadMem(24 bytes @ 0x40013800) - Data: C0 00 00 00 00 00 00 00 4C 1D 00 00 0C 20 00 00 ...  returns 0x00 (0000ms, 0712ms total)
T104C 008:064 JLINK_ReadMem (0x40013818, 0x0004 Bytes, ...) -- CPU is running -- CPU_ReadMem(4 bytes @ 0x40013818) - Data: 00 00 00 00  returns 0x00 (0001ms, 0713ms total)
T104C 008:065 JLINK_ReadMem (0x40010800, 0x000C Bytes, ...) -- CPU is running -- CPU_ReadMem(12 bytes @ 0x40010800) - Data: 44 44 44 44 A4 44 84 88 FF 9E 00 00  returns 0x00 (0000ms, 0713ms total)
T104C 008:065 JLINK_ReadMem (0x4001080C, 0x0004 Bytes, ...) -- CPU is running -- CPU_ReadMem(4 bytes @ 0x4001080C) - Data: 00 A0 00 00  returns 0x00 (0001ms, 0714ms total)
T104C 008:066 JLINK_ReadMem (0x40010818, 0x0004 Bytes, ...) -- CPU is running -- CPU_ReadMem(4 bytes @ 0x40010818) - Data: 00 00 00 00  returns 0x00 (0000ms, 0714ms total)
T104C 008:067 JLINK_ReadMem (0x40012000, 0x000C Bytes, ...) -- CPU is running -- CPU_ReadMem(12 bytes @ 0x40012000) - Data: 44 44 44 18 41 44 44 44 C3 FF 00 00  returns 0x00 (0000ms, 0714ms total)
T104C 008:067 JLINK_ReadMem (0x4001200C, 0x0004 Bytes, ...) -- CPU is running -- CPU_ReadMem(4 bytes @ 0x4001200C) - Data: C0 01 00 00  returns 0x00 (0001ms, 0715ms total)
T104C 008:068 JLINK_ReadMem (0x40012018, 0x0004 Bytes, ...) -- CPU is running -- CPU_ReadMem(4 bytes @ 0x40012018) - Data: 00 00 00 00  returns 0x00 (0000ms, 0715ms total)
T0EC8 008:068 JLINK_IsHalted()  returns FALSE (0001ms, 0716ms total)
T0EC8 008:169 JLINK_IsHalted()  returns FALSE (0000ms, 0715ms total)
T0EC8 008:269 JLINK_IsHalted()  returns FALSE (0000ms, 0715ms total)
T0EC8 008:369 JLINK_IsHalted()  returns FALSE (0000ms, 0715ms total)
T0EC8 008:469 JLINK_IsHalted()  returns FALSE (0000ms, 0715ms total)
T0EC8 008:569 JLINK_ReadMemU32(0xE0001004, 0x0001 Items, ...) -- CPU is running -- CPU_ReadMem(4 bytes @ 0xE0001004) - Data: C0 3B C5 0D  returns 0x01 (0000ms, 0715ms total)
T104C 008:569 JLINK_ReadMem (0x08001128, 0x0005 Bytes, ...) -- CPU is running -- CPU_ReadMem(5 bytes @ 0x08001128) - Data: 34 43 10 10 01  returns 0x00 (0001ms, 0716ms total)
T104C 008:570 JLINK_ReadMem (0x0800112D, 0x0005 Bytes, ...) -- CPU is running -- CPU_ReadMem(5 bytes @ 0x0800112D) - Data: 34 43 10 10 01  returns 0x00 (0001ms, 0717ms total)
T104C 008:571 JLINK_ReadMem (0x20000004, 0x0001 Bytes, ...) -- CPU is running -- CPU_ReadMem(1 bytes @ 0x20000004) - Data: 00  returns 0x00 (0001ms, 0718ms total)
T104C 008:572 JLINK_ReadMem (0x20000020, 0x0020 Bytes, ...) -- CPU is running -- CPU_ReadMem(32 bytes @ 0x20000020) - Data: 00 00 00 00 00 00 00 00 00 00 00 00 00 00 00 00 ...  returns 0x00 (0001ms, 0719ms total)
T104C 008:573 JLINK_ReadMem (0x40010C00, 0x000C Bytes, ...) -- CPU is running -- CPU_ReadMem(12 bytes @ 0x40010C00) - Data: 44 44 28 44 44 44 94 99 D3 1E 00 00  returns 0x00 (0000ms, 0719ms total)
T104C 008:573 JLINK_ReadMem (0x40010C0C, 0x0004 Bytes, ...) -- CPU is running -- CPU_ReadMem(4 bytes @ 0x40010C0C) - Data: 10 00 00 00  returns 0x00 (0001ms, 0720ms total)
T104C 008:574 JLINK_ReadMem (0x40010C18, 0x0004 Bytes, ...) -- CPU is running -- CPU_ReadMem(4 bytes @ 0x40010C18) - Data: 00 00 00 00  returns 0x00 (0000ms, 0720ms total)
T104C 008:575 JLINK_ReadMem (0x40011800, 0x000C Bytes, ...) -- CPU is running -- CPU_ReadMem(12 bytes @ 0x40011800) - Data: 44 44 28 44 44 44 44 44 7C 60 00 00  returns 0x00 (0000ms, 0720ms total)
T104C 008:575 JLINK_ReadMem (0x4001180C, 0x0004 Bytes, ...) -- CPU is running -- CPU_ReadMem(4 bytes @ 0x4001180C) - Data: 30 00 00 00  returns 0x00 (0001ms, 0721ms total)
T104C 008:576 JLINK_ReadMem (0x40011818, 0x0004 Bytes, ...) -- CPU is running -- CPU_ReadMem(4 bytes @ 0x40011818) - Data: 00 00 00 00  returns 0x00 (0000ms, 0721ms total)
T104C 008:576 JLINK_ReadMem (0x40000000, 0x0010 Bytes, ...) -- CPU is running -- CPU_ReadMem(16 bytes @ 0x40000000) - Data: 01 00 00 00 00 00 00 00 00 00 00 00 00 00 00 00  returns 0x00 (0001ms, 0722ms total)
T104C 008:577 JLINK_ReadMem (0x40000010, 0x0004 Bytes, ...) -- CPU is running -- CPU_ReadMem(4 bytes @ 0x40000010) - Data: 1E 00 00 00  returns 0x00 (0000ms, 0722ms total)
T104C 008:577 JLINK_ReadMem (0x40000018, 0x0014 Bytes, ...) -- CPU is running -- CPU_ReadMem(20 bytes @ 0x40000018) - Data: 00 00 00 00 00 00 00 00 00 00 00 00 87 4A 00 00 ...  returns 0x00 (0001ms, 0723ms total)
T104C 008:578 JLINK_ReadMem (0x4000002C, 0x0004 Bytes, ...) -- CPU is running -- CPU_ReadMem(4 bytes @ 0x4000002C) - Data: 50 C3 00 00  returns 0x00 (0000ms, 0723ms total)
T104C 008:578 JLINK_ReadMem (0x40000034, 0x000C Bytes, ...) -- CPU is running -- CPU_ReadMem(12 bytes @ 0x40000034) - Data: 00 00 00 00 00 00 00 00 00 00 00 00  returns 0x00 (0001ms, 0724ms total)
T104C 008:579 JLINK_ReadMem (0x40000040, 0x0004 Bytes, ...) -- CPU is running -- CPU_ReadMem(4 bytes @ 0x40000040) - Data: 00 00 00 00  returns 0x00 (0000ms, 0724ms total)
T104C 008:579 JLINK_ReadMem (0x40000048, 0x0004 Bytes, ...) -- CPU is running -- CPU_ReadMem(4 bytes @ 0x40000048) - Data: 00 00 00 00  returns 0x00 (0001ms, 0725ms total)
T104C 008:580 JLINK_ReadMem (0x4000004C, 0x0004 Bytes, ...) -- CPU is running -- CPU_ReadMem(4 bytes @ 0x4000004C) - Data: 01 00 00 00  returns 0x00 (0000ms, 0725ms total)
T104C 008:581 JLINK_ReadMem (0x40013800, 0x0018 Bytes, ...) -- CPU is running -- CPU_ReadMem(24 bytes @ 0x40013800) - Data: C0 00 00 00 00 00 00 00 4C 1D 00 00 0C 20 00 00 ...  returns 0x00 (0000ms, 0725ms total)
T104C 008:581 JLINK_ReadMem (0x40013818, 0x0004 Bytes, ...) -- CPU is running -- CPU_ReadMem(4 bytes @ 0x40013818) - Data: 00 00 00 00  returns 0x00 (0001ms, 0726ms total)
T104C 008:582 JLINK_ReadMem (0x40010800, 0x000C Bytes, ...) -- CPU is running -- CPU_ReadMem(12 bytes @ 0x40010800) - Data: 44 44 44 44 A4 44 84 88 FF 9E 00 00  returns 0x00 (0000ms, 0726ms total)
T104C 008:582 JLINK_ReadMem (0x4001080C, 0x0004 Bytes, ...) -- CPU is running -- CPU_ReadMem(4 bytes @ 0x4001080C) - Data: 00 A0 00 00  returns 0x00 (0001ms, 0727ms total)
T104C 008:583 JLINK_ReadMem (0x40010818, 0x0004 Bytes, ...) -- CPU is running -- CPU_ReadMem(4 bytes @ 0x40010818) - Data: 00 00 00 00  returns 0x00 (0000ms, 0727ms total)
T104C 008:584 JLINK_ReadMem (0x40012000, 0x000C Bytes, ...) -- CPU is running -- CPU_ReadMem(12 bytes @ 0x40012000) - Data: 44 44 44 18 41 44 44 44 C3 FF 00 00  returns 0x00 (0000ms, 0727ms total)
T104C 008:584 JLINK_ReadMem (0x4001200C, 0x0004 Bytes, ...) -- CPU is running -- CPU_ReadMem(4 bytes @ 0x4001200C) - Data: C0 01 00 00  returns 0x00 (0001ms, 0728ms total)
T104C 008:585 JLINK_ReadMem (0x40012018, 0x0004 Bytes, ...) -- CPU is running -- CPU_ReadMem(4 bytes @ 0x40012018) - Data: 00 00 00 00  returns 0x00 (0000ms, 0728ms total)
T0EC8 008:587 JLINK_IsHalted()  returns FALSE (0001ms, 0729ms total)
T0EC8 008:688 JLINK_IsHalted()  returns FALSE (0000ms, 0728ms total)
T0EC8 008:788 JLINK_IsHalted()  returns FALSE (0000ms, 0728ms total)
T0EC8 008:888 JLINK_IsHalted()  returns FALSE (0000ms, 0728ms total)
T0EC8 008:988 JLINK_IsHalted()  returns FALSE (0000ms, 0728ms total)
T0EC8 009:088 JLINK_ReadMemU32(0xE0001004, 0x0001 Items, ...) -- CPU is running -- CPU_ReadMem(4 bytes @ 0xE0001004) - Data: 2B 72 FF 0F  returns 0x01 (0000ms, 0728ms total)
T104C 009:088 JLINK_ReadMem (0x08001128, 0x0005 Bytes, ...) -- CPU is running -- CPU_ReadMem(5 bytes @ 0x08001128) - Data: 34 43 10 10 01  returns 0x00 (0001ms, 0729ms total)
T104C 009:089 JLINK_ReadMem (0x0800112D, 0x0005 Bytes, ...) -- CPU is running -- CPU_ReadMem(5 bytes @ 0x0800112D) - Data: 34 43 10 10 01  returns 0x00 (0001ms, 0730ms total)
T104C 009:090 JLINK_ReadMem (0x20000004, 0x0001 Bytes, ...) -- CPU is running -- CPU_ReadMem(1 bytes @ 0x20000004) - Data: 00  returns 0x00 (0001ms, 0731ms total)
T104C 009:091 JLINK_ReadMem (0x20000020, 0x0020 Bytes, ...) -- CPU is running -- CPU_ReadMem(32 bytes @ 0x20000020) - Data: 00 00 00 00 00 00 00 00 00 00 00 00 00 00 00 00 ...  returns 0x00 (0001ms, 0732ms total)
T104C 009:092 JLINK_ReadMem (0x40010C00, 0x000C Bytes, ...) -- CPU is running -- CPU_ReadMem(12 bytes @ 0x40010C00) - Data: 44 44 28 44 44 44 94 99 F3 1E 00 00  returns 0x00 (0000ms, 0732ms total)
T104C 009:092 JLINK_ReadMem (0x40010C0C, 0x0004 Bytes, ...) -- CPU is running -- CPU_ReadMem(4 bytes @ 0x40010C0C) - Data: 30 00 00 00  returns 0x00 (0001ms, 0733ms total)
T104C 009:093 JLINK_ReadMem (0x40010C18, 0x0004 Bytes, ...) -- CPU is running -- CPU_ReadMem(4 bytes @ 0x40010C18) - Data: 00 00 00 00  returns 0x00 (0000ms, 0733ms total)
T104C 009:094 JLINK_ReadMem (0x40011800, 0x000C Bytes, ...) -- CPU is running -- CPU_ReadMem(12 bytes @ 0x40011800) - Data: 44 44 28 44 44 44 44 44 7C 60 00 00  returns 0x00 (0000ms, 0733ms total)
T104C 009:094 JLINK_ReadMem (0x4001180C, 0x0004 Bytes, ...) -- CPU is running -- CPU_ReadMem(4 bytes @ 0x4001180C) - Data: 30 00 00 00  returns 0x00 (0001ms, 0734ms total)
T104C 009:095 JLINK_ReadMem (0x40011818, 0x0004 Bytes, ...) -- CPU is running -- CPU_ReadMem(4 bytes @ 0x40011818) - Data: 00 00 00 00  returns 0x00 (0000ms, 0734ms total)
